
T1014 000:381 SEGGER J-Link V4.36l Log File (0000ms, 0379ms total)
T1014 000:381 DLL Compiled: Dec  2 2011 18:52:36 (0000ms, 0379ms total)
T1014 000:381 Logging started @ 2014-12-31 17:38 (0000ms, 0379ms total)
T1014 000:381 JLINK_SetWarnOutHandler(...) (0000ms, 0379ms total)
T1014 000:381 JLINK_OpenEx(...)
Firmware: J-Link ARM V8 compiled Dec  6 2011 18:57:44
Hardware: V8.00
S/N: 805306163
Feature(s): RDI,FlashDL,FlashBP,JFlash,GDBFull  returns O.K. (0132ms, 0379ms total)
T1014 000:513 JLINK_SetErrorOutHandler(...) (0000ms, 0511ms total)
T1014 000:513 JLINK_ExecCommand("Device = STM32F103C8", ...)
                JLINK_ExecCommand("map ram 0x20000000 - 0x20004FFF", ...)  returns 0x00 (0000ms, 0000ms total)
                JLINK_AddMirrorAreaEx(Addr = 0x00000000, Size = 0x00000000) (0000ms, 0000ms total)
              Device "STM32F103C8" selected (64 KB flash, 20 KB RAM).  returns 0x00 (0000ms, 0511ms total)
T1014 000:515 JLINK_ExecCommand("ProjectFile = "F:\SmartDog\stmboot_test\bootloader\V1\JLinkSettings.ini"", ...)  returns 0x00 (0001ms, 0511ms total)
T1014 000:516 JLINK_ExecCommand("DisableConnectionTimeout", ...)  returns 0x00 (0000ms, 0512ms total)
T1014 000:516 JLINK_TIF_Select(JLINKARM_TIF_SWD)  returns 0x00 (0003ms, 0512ms total)
T1014 000:519 JLINK_SetSpeed(10000) (0000ms, 0515ms total)
T1014 000:519 JLINK_GetHardwareVersion()  returns 0x13880 (0000ms, 0515ms total)
T1014 000:519 JLINK_GetDLLVersion()  returns 43612 (0000ms, 0515ms total)
T1014 000:519 JLINK_GetFirmwareString(...) (0000ms, 0515ms total)
T1014 000:520 JLINK_GetDLLVersion()  returns 43612 (0000ms, 0515ms total)
T1014 000:520 JLINK_GetCompileDateTime() (0000ms, 0515ms total)
T1014 000:520 JLINK_GetFirmwareString(...) (0000ms, 0515ms total)
T1014 000:520 JLINK_GetHardwareVersion()  returns 0x13880 (0000ms, 0515ms total)
T1014 000:521 JLINK_GetId() >0x108 TIF>Found SWD-DP with ID 0x1BA01477 >0x33 TIF> >0x33 TIF> >0x35 TIF> >0x33 TIF> >0x35 TIF> >0x33 TIF> >0x33 TIF> >0x35 TIF> >0x33 TIF> >0x33 TIF> >0x35 TIF> >0x33 TIF> >0x33 TIF> >0x35 TIF> >0x33 TIF> >0x33 TIF> >0x35 TIF> >0x35 TIF> >0x35 TIF> >0x35 TIF> >0x35 TIF> >0x33 TIF> >0x33 TIF> >0x35 TIF> >0x33 TIF> >0x33 TIF> >0x33 TIF>TPIU fitted. >0x35 TIF> >0x33 TIF> >0x33 TIF> >0x35 TIF> >0x33 TIF> >0x33 TIF>  FPUnit: 6 code (BP) slots and 2 literal slots >0x35 TIF>
 >0x33 TIF> >0x33 TIF> >0x35 TIF> >0x35 TIF> >0x35 TIF> >0x33 TIF> >0x33 TIF> >0x35 TIF> >0x33 TIF> >0x33 TIF> >0x35 TIF> >0x33 TIF> >0x33 TIF>Found Cortex-M3 r1p1, Little endian. >0x33 TIF>  returns 0x1BA01477 (0031ms, 0515ms total)
T1014 000:552 JLINK_GetDebugInfo(0x100) -- Value=0xE00FF003  returns 0x00 (0000ms, 0546ms total)
T1014 000:552 JLINK_ReadMem (0xE00FFFF0, 0x0010 Bytes, ...) -- CPU is running -- CPU_ReadMem(16 bytes @ 0xE00FFFF0) -- Data:  0D 00 00 00 10 00 00 00 05 00 00 00 B1 00 00 00  returns 0x00 (0002ms, 0546ms total)
T1014 000:554 JLINK_ReadMem (0xE00FFFD0, 0x0020 Bytes, ...) -- CPU is running -- CPU_ReadMem(32 bytes @ 0xE00FFFD0) -- Data:  00 00 00 00 00 00 00 00 00 00 00 00 00 00 00 00 ...  returns 0x00 (0001ms, 0548ms total)
T1014 000:555 JLINK_ReadMem (0xE00FF000, 0x0018 Bytes, ...) -- CPU is running -- CPU_ReadMem(24 bytes @ 0xE00FF000) -- Data:  03 F0 F0 FF 03 20 F0 FF 03 30 F0 FF 03 10 F0 FF ...  returns 0x00 (0001ms, 0549ms total)
T1014 000:556 JLINK_ReadMemU32(0xE000ED00, 0x0001 Items, ...) -- CPU is running -- CPU_ReadMem(4 bytes @ 0xE000ED00) -- Data:  31 C2 1F 41  returns 0x01 (0001ms, 0550ms total)
T1014 000:557 JLINK_SetResetType(JLINKARM_RESET_TYPE_NORMAL)  returns JLINKARM_RESET_TYPE_NORMAL (0000ms, 0551ms total)
T1014 000:557 JLINK_Reset() >0x108 TIF>Found SWD-DP with ID 0x1BA01477 >0x33 TIF> >0x33 TIF> >0x35 TIF> >0x33 TIF> >0x35 TIF> >0x33 TIF> >0x33 TIF> >0x35 TIF> >0x33 TIF> >0x33 TIF> >0x35 TIF> >0x33 TIF> >0x33 TIF> >0x35 TIF> >0x33 TIF> >0x33 TIF> >0x35 TIF> >0x35 TIF> >0x35 TIF> >0x35 TIF> >0x35 TIF> >0x33 TIF> >0x33 TIF> >0x35 TIF> >0x33 TIF> >0x33 TIF> >0x33 TIF>TPIU fitted. >0x35 TIF> >0x33 TIF> >0x33 TIF> >0x35 TIF> >0x33 TIF> >0x33 TIF>  FPUnit: 6 code (BP) slots and 2 literal slots >0x35 TIF>
 >0x33 TIF> >0x33 TIF> >0x35 TIF> >0x33 TIF> >0x33 TIF> >0x35 TIF> >0x33 TIF> >0x33 TIF> >0x35 TIF> >0x33 TIF> >0x33 TIF>Found Cortex-M3 r1p1, Little endian. (0047ms, 0551ms total)
T1014 000:604 JLINK_ReadReg(R15)  returns 0x080000EC (0000ms, 0598ms total)
T1014 000:604 JLINK_ReadReg(XPSR)  returns 0x01000000 (0000ms, 0598ms total)
T1014 000:604 JLINK_Halt()  returns 0x00 (0000ms, 0598ms total)
T1014 000:604 JLINK_IsHalted()  returns TRUE (0000ms, 0598ms total)
T1014 000:604 JLINK_ReadMemU32(0xE000EDF0, 0x0001 Items, ...) -- CPU_ReadMem(4 bytes @ 0xE000EDF0) -- Data:  03 00 03 00  returns 0x01 (0001ms, 0598ms total)
T1014 000:605 JLINK_WriteU32(0xE000EDF0, 0xA05F0003) -- CPU_WriteMem(4 bytes @ 0xE000EDF0)  returns 0x00 (0000ms, 0599ms total)
T1014 000:605 JLINK_WriteU32(0xE000EDFC, 0x01000000) -- CPU_WriteMem(4 bytes @ 0xE000EDFC)  returns 0x00 (0001ms, 0599ms total)
T1014 000:606 JLINK_GetHWStatus(...)  returns 0x00 (0001ms, 0600ms total)
T1014 000:607 JLINK_GetNumBPUnits(Type = 0xFFFFFF00)  returns 0x06 (0000ms, 0601ms total)
T1014 000:607 JLINK_GetNumBPUnits(Type = 0xF0)  returns 0x2000 (0000ms, 0601ms total)
T1014 000:607 JLINK_GetNumWPUnits()  returns 0x04 (0000ms, 0601ms total)
T1014 000:607 JLINK_GetSpeed()  returns 0xFA0 (0000ms, 0601ms total)
T1014 000:607 JLINK_ReadMemU32(0xE000E004, 0x0001 Items, ...) -- CPU_ReadMem(4 bytes @ 0xE000E004) -- Data:  01 00 00 00  returns 0x01 (0001ms, 0601ms total)
T1014 000:608 JLINK_ReadMemU32(0xE000E004, 0x0001 Items, ...) -- CPU_ReadMem(4 bytes @ 0xE000E004) -- Data:  01 00 00 00  returns 0x01 (0001ms, 0602ms total)
T1014 000:609 JLINK_WriteMem(0xE0001000, 0x001C Bytes, ...) -- Data:  01 00 00 00 00 00 00 00 00 00 00 00 00 00 00 00 ... -- CPU_WriteMem(28 bytes @ 0xE0001000)  returns 0x1C (0001ms, 0603ms total)
T1014 000:610 JLINK_ReadMem (0xE0001000, 0x001C Bytes, ...) -- CPU_ReadMem(28 bytes @ 0xE0001000) -- Data:  01 00 00 40 00 00 00 00 00 00 00 00 00 00 00 00 ...  returns 0x00 (0001ms, 0604ms total)
T1014 000:611 JLINK_ReadReg(R15)  returns 0x080000EC (0000ms, 0605ms total)
T1014 000:611 JLINK_ReadReg(XPSR)  returns 0x01000000 (0000ms, 0605ms total)
T1014 000:709 JLINK_SetResetType(JLINKARM_RESET_TYPE_NORMAL)  returns JLINKARM_RESET_TYPE_NORMAL (0001ms, 0605ms total)
T1014 000:710 JLINK_Reset() >0x108 TIF>Found SWD-DP with ID 0x1BA01477 >0x33 TIF> >0x33 TIF> >0x35 TIF> >0x33 TIF> >0x35 TIF> >0x33 TIF> >0x33 TIF> >0x35 TIF> >0x33 TIF> >0x33 TIF> >0x35 TIF> >0x33 TIF> >0x33 TIF> >0x35 TIF> >0x33 TIF> >0x33 TIF> >0x35 TIF> >0x35 TIF> >0x35 TIF> >0x35 TIF> >0x35 TIF> >0x33 TIF> >0x33 TIF> >0x35 TIF> >0x33 TIF> >0x33 TIF> >0x33 TIF>TPIU fitted. >0x35 TIF> >0x33 TIF> >0x33 TIF> >0x35 TIF> >0x33 TIF> >0x33 TIF>  FPUnit: 6 code (BP) slots and 2 literal slots >0x35 TIF>
 >0x33 TIF> >0x33 TIF> >0x35 TIF> >0x33 TIF> >0x33 TIF> >0x35 TIF> >0x33 TIF> >0x33 TIF> >0x35 TIF> >0x33 TIF> >0x33 TIF>Found Cortex-M3 r1p1, Little endian. (0055ms, 0606ms total)
T1014 000:765 JLINK_ReadReg(R15)  returns 0x080000EC (0000ms, 0661ms total)
T1014 000:765 JLINK_ReadReg(XPSR)  returns 0x01000000 (0000ms, 0661ms total)
T1014 000:765 JLINK_ReadMem (0x080000EC, 0x003C Bytes, ...) -- CPU_ReadMem(128 bytes @ 0x080000C0) -- Updating C cache (128 bytes @ 0x080000C0) -- Read from C cache (60 bytes @ 0x080000EC) -- Data:  03 48 00 47 FE E7 FE E7 FE E7 FE E7 FE E7 FE E7 ...  returns 0x00 (0002ms, 0661ms total)
T1014 000:858 JLINK_ReadMem (0x200000DC, 0x0001 Bytes, ...) -- CPU_ReadMem(64 bytes @ 0x200000C0) -- Updating C cache (64 bytes @ 0x200000C0) -- Read from C cache (1 bytes @ 0x200000DC) -- Data:  00  returns 0x00 (0002ms, 0663ms total)
T1918 004:232 JLINK_SetBPEx(Addr = 0x08001554, Type = 0xFFFFFFF2)  returns 0x00000001 (0000ms, 0665ms total)
T1918 004:232 JLINK_SetBPEx(Addr = 0x08000E4C, Type = 0xFFFFFFF2)  returns 0x00000002 (0000ms, 0665ms total)
T1918 004:232 JLINK_Go() -- CPU_WriteMem(4 bytes @ 0xE0002000) -- CPU_WriteMem(4 bytes @ 0xE0002008) -- CPU_WriteMem(4 bytes @ 0xE000200C) -- CPU_WriteMem(4 bytes @ 0xE0002010) -- CPU_WriteMem(4 bytes @ 0xE0002014) -- CPU_WriteMem(4 bytes @ 0xE0002018) -- CPU_WriteMem(4 bytes @ 0xE000201C) (0018ms, 0665ms total)
T1918 004:351 JLINK_IsHalted()  returns FALSE (0000ms, 0683ms total)
T1918 004:451 JLINK_IsHalted()  returns FALSE (0001ms, 0683ms total)
T1918 004:553 JLINK_IsHalted()  returns FALSE (0001ms, 0683ms total)
T1918 004:654 JLINK_IsHalted()  returns FALSE (0000ms, 0683ms total)
T1918 004:755 JLINK_ReadMemU32(0xE0001004, 0x0001 Items, ...) -- CPU is running -- CPU_ReadMem(4 bytes @ 0xE0001004) -- Data:  01 00 00 40  returns 0x01 (0000ms, 0683ms total)
T1014 004:757 JLINK_ReadMem (0x200000DC, 0x0001 Bytes, ...) -- CPU is running -- CPU_ReadMem(1 bytes @ 0x200000DC) -- Data:  00  returns 0x00 (0001ms, 0683ms total)
T1918 004:760 JLINK_IsHalted()  returns FALSE (0001ms, 0684ms total)
T1918 004:861 JLINK_IsHalted()  returns FALSE (0000ms, 0684ms total)
T1918 004:962 JLINK_IsHalted()  returns FALSE (0000ms, 0684ms total)
T1918 005:062 JLINK_IsHalted()  returns FALSE (0000ms, 0684ms total)
T1918 005:163 JLINK_IsHalted()  returns FALSE (0000ms, 0684ms total)
T1918 005:264 JLINK_IsHalted()  returns FALSE (0001ms, 0684ms total)
T1918 005:365 JLINK_ReadMemU32(0xE0001004, 0x0001 Items, ...) -- CPU is running -- CPU_ReadMem(4 bytes @ 0xE0001004) -- Data:  01 00 00 40  returns 0x01 (0001ms, 0684ms total)
T1014 005:367 JLINK_ReadMem (0x200000DC, 0x0001 Bytes, ...) -- CPU is running -- CPU_ReadMem(1 bytes @ 0x200000DC) -- Data:  00  returns 0x00 (0001ms, 0685ms total)
T1918 005:370 JLINK_IsHalted()  returns FALSE (0001ms, 0686ms total)
T1918 005:472 JLINK_IsHalted()  returns FALSE (0000ms, 0686ms total)
T1918 005:572 JLINK_IsHalted()  returns FALSE (0000ms, 0686ms total)
T1918 005:673 JLINK_IsHalted()  returns FALSE (0001ms, 0686ms total)
T1918 005:774 JLINK_IsHalted()  returns FALSE (0000ms, 0686ms total)
T1918 005:875 JLINK_IsHalted()  returns FALSE (0000ms, 0686ms total)
T1918 005:976 JLINK_ReadMemU32(0xE0001004, 0x0001 Items, ...) -- CPU is running -- CPU_ReadMem(4 bytes @ 0xE0001004) -- Data:  01 00 00 40  returns 0x01 (0000ms, 0686ms total)
T1014 005:977 JLINK_ReadMem (0x200000DC, 0x0001 Bytes, ...) -- CPU is running -- CPU_ReadMem(1 bytes @ 0x200000DC) -- Data:  00  returns 0x00 (0001ms, 0686ms total)
T1918 005:981 JLINK_IsHalted()  returns FALSE (0001ms, 0687ms total)
T1918 006:083 JLINK_IsHalted()  returns FALSE (0001ms, 0687ms total)
T1918 006:185 JLINK_IsHalted()  returns FALSE (0000ms, 0687ms total)
T1918 006:285 JLINK_IsHalted()  returns FALSE (0001ms, 0687ms total)
T1918 006:387 JLINK_IsHalted()  returns FALSE (0000ms, 0687ms total)
T1918 006:487 JLINK_ReadMemU32(0xE0001004, 0x0001 Items, ...) -- CPU is running -- CPU_ReadMem(4 bytes @ 0xE0001004) -- Data:  01 00 00 40  returns 0x01 (0000ms, 0687ms total)
T1014 006:489 JLINK_ReadMem (0x200000DC, 0x0001 Bytes, ...) -- CPU is running -- CPU_ReadMem(1 bytes @ 0x200000DC) -- Data:  00  returns 0x00 (0000ms, 0687ms total)
T1918 006:491 JLINK_IsHalted()  returns FALSE (0001ms, 0687ms total)
T1918 006:593 JLINK_IsHalted()  returns FALSE (0000ms, 0687ms total)
T1918 006:693 JLINK_IsHalted()  returns FALSE (0001ms, 0687ms total)
T1918 006:795 JLINK_IsHalted()  returns FALSE (0000ms, 0687ms total)
T1918 006:895 JLINK_IsHalted()  returns FALSE (0000ms, 0687ms total)
T1918 006:996 JLINK_IsHalted()  returns FALSE (0000ms, 0687ms total)
T1918 007:097 JLINK_ReadMemU32(0xE0001004, 0x0001 Items, ...) -- CPU is running -- CPU_ReadMem(4 bytes @ 0xE0001004) -- Data:  01 00 00 40  returns 0x01 (0001ms, 0687ms total)
T1014 007:099 JLINK_ReadMem (0x200000DC, 0x0001 Bytes, ...) -- CPU is running -- CPU_ReadMem(1 bytes @ 0x200000DC) -- Data:  00  returns 0x00 (0001ms, 0688ms total)
T1918 007:102 JLINK_IsHalted()  returns FALSE (0000ms, 0689ms total)
T1918 007:203 JLINK_IsHalted()  returns FALSE (0000ms, 0689ms total)
T1918 007:304 JLINK_IsHalted()  returns FALSE (0001ms, 0689ms total)
T1918 007:405 JLINK_IsHalted()  returns FALSE (0000ms, 0689ms total)
T1918 007:506 JLINK_IsHalted()  returns FALSE (0000ms, 0689ms total)
T1918 007:606 JLINK_IsHalted()  returns FALSE (0000ms, 0689ms total)
T1918 007:707 JLINK_ReadMemU32(0xE0001004, 0x0001 Items, ...) -- CPU is running -- CPU_ReadMem(4 bytes @ 0xE0001004) -- Data:  01 00 00 40  returns 0x01 (0000ms, 0689ms total)
T1014 007:709 JLINK_ReadMem (0x200000DC, 0x0001 Bytes, ...) -- CPU is running -- CPU_ReadMem(1 bytes @ 0x200000DC) -- Data:  00  returns 0x00 (0001ms, 0689ms total)
T1918 007:712 JLINK_IsHalted()  returns FALSE (0001ms, 0690ms total)
T1918 007:813 JLINK_IsHalted()  returns FALSE (0000ms, 0690ms total)
T1918 007:914 JLINK_IsHalted()  returns FALSE (0001ms, 0690ms total)
T1918 008:016 JLINK_IsHalted()  returns FALSE (0000ms, 0690ms total)
T1918 008:116 JLINK_IsHalted()  returns FALSE (0000ms, 0690ms total)
T1918 008:217 JLINK_IsHalted()  returns FALSE (0000ms, 0690ms total)
T1918 008:317 JLINK_ReadMemU32(0xE0001004, 0x0001 Items, ...) -- CPU is running -- CPU_ReadMem(4 bytes @ 0xE0001004) -- Data:  01 00 00 40  returns 0x01 (0001ms, 0690ms total)
T1014 008:324 JLINK_ReadMem (0x200000DC, 0x0001 Bytes, ...) -- CPU is running -- CPU_ReadMem(1 bytes @ 0x200000DC) -- Data:  00  returns 0x00 (0000ms, 0691ms total)
T1918 008:327 JLINK_IsHalted()  returns FALSE (0001ms, 0691ms total)
T1918 008:429 JLINK_IsHalted()  returns FALSE (0000ms, 0691ms total)
T1918 008:529 JLINK_IsHalted()  returns FALSE (0000ms, 0691ms total)
T1918 008:631 JLINK_IsHalted()  returns FALSE (0001ms, 0691ms total)
T1918 008:732 JLINK_IsHalted()  returns FALSE (0000ms, 0691ms total)
T1918 008:833 JLINK_ReadMemU32(0xE0001004, 0x0001 Items, ...) -- CPU is running -- CPU_ReadMem(4 bytes @ 0xE0001004) -- Data:  01 00 00 40  returns 0x01 (0002ms, 0691ms total)
T1014 008:838 JLINK_ReadMem (0x200000DC, 0x0001 Bytes, ...) -- CPU is running -- CPU_ReadMem(1 bytes @ 0x200000DC) -- Data:  00  returns 0x00 (0001ms, 0693ms total)
T1918 008:841 JLINK_IsHalted()  returns FALSE (0001ms, 0694ms total)
T1918 008:942 JLINK_IsHalted()  returns FALSE (0001ms, 0694ms total)
T1918 009:044 JLINK_IsHalted()  returns FALSE (0000ms, 0694ms total)
T1918 009:144 JLINK_IsHalted()  returns FALSE (0000ms, 0694ms total)
T1918 009:245 JLINK_IsHalted()  returns FALSE (0000ms, 0694ms total)
T1918 009:346 JLINK_ReadMemU32(0xE0001004, 0x0001 Items, ...) -- CPU is running -- CPU_ReadMem(4 bytes @ 0xE0001004) -- Data:  01 00 00 40  returns 0x01 (0001ms, 0694ms total)
T1014 009:348 JLINK_ReadMem (0x200000DC, 0x0001 Bytes, ...) -- CPU is running -- CPU_ReadMem(1 bytes @ 0x200000DC) -- Data:  00  returns 0x00 (0001ms, 0695ms total)
T1918 009:352 JLINK_IsHalted()  returns FALSE (0000ms, 0696ms total)
T1918 009:453 JLINK_IsHalted()  returns FALSE (0000ms, 0696ms total)
T1918 009:554 JLINK_IsHalted()  returns FALSE (0000ms, 0696ms total)
T1918 009:654 JLINK_IsHalted()  returns FALSE (0001ms, 0696ms total)
T1918 009:756 JLINK_IsHalted()  returns FALSE (0000ms, 0696ms total)
T1918 009:856 JLINK_IsHalted()  returns FALSE (0001ms, 0696ms total)
T1918 009:958 JLINK_ReadMemU32(0xE0001004, 0x0001 Items, ...) -- CPU is running -- CPU_ReadMem(4 bytes @ 0xE0001004) -- Data:  01 00 00 40  returns 0x01 (0000ms, 0696ms total)
T1014 009:960 JLINK_ReadMem (0x200000DC, 0x0001 Bytes, ...) -- CPU is running -- CPU_ReadMem(1 bytes @ 0x200000DC) -- Data:  00  returns 0x00 (0001ms, 0696ms total)
T1918 009:964 JLINK_IsHalted()  returns FALSE (0001ms, 0697ms total)
T1918 010:065 JLINK_IsHalted()  returns FALSE (0001ms, 0697ms total)
T1918 010:167 JLINK_IsHalted()  returns FALSE (0000ms, 0697ms total)
T1918 010:268 JLINK_IsHalted()  returns FALSE (0000ms, 0697ms total)
T1918 010:368 JLINK_IsHalted()  returns FALSE (0001ms, 0697ms total)
T1918 010:470 JLINK_ReadMemU32(0xE0001004, 0x0001 Items, ...) -- CPU is running -- CPU_ReadMem(4 bytes @ 0xE0001004) -- Data:  01 00 00 40  returns 0x01 (0000ms, 0697ms total)
T1014 010:472 JLINK_ReadMem (0x200000DC, 0x0001 Bytes, ...) -- CPU is running -- CPU_ReadMem(1 bytes @ 0x200000DC) -- Data:  00  returns 0x00 (0001ms, 0697ms total)
T1918 010:475 JLINK_IsHalted()  returns FALSE (0000ms, 0698ms total)
T1918 010:575 JLINK_IsHalted()  returns FALSE (0000ms, 0698ms total)
T1918 010:677 JLINK_IsHalted()  returns FALSE (0000ms, 0698ms total)
T1918 010:777 JLINK_IsHalted()  returns FALSE (0000ms, 0698ms total)
T1918 010:879 JLINK_IsHalted()  returns FALSE (0001ms, 0698ms total)
T1918 010:980 JLINK_IsHalted()  returns FALSE (0000ms, 0698ms total)
T1918 011:081 JLINK_ReadMemU32(0xE0001004, 0x0001 Items, ...) -- CPU is running -- CPU_ReadMem(4 bytes @ 0xE0001004) -- Data:  01 00 00 40  returns 0x01 (0000ms, 0698ms total)
T1014 011:082 JLINK_ReadMem (0x200000DC, 0x0001 Bytes, ...) -- CPU is running -- CPU_ReadMem(1 bytes @ 0x200000DC) -- Data:  00  returns 0x00 (0001ms, 0698ms total)
T1918 011:086 JLINK_IsHalted()  returns FALSE (0001ms, 0699ms total)
T1918 011:187 JLINK_IsHalted()  returns FALSE (0000ms, 0699ms total)
T1918 011:288 JLINK_IsHalted()  returns FALSE (0000ms, 0699ms total)
T1918 011:389 JLINK_IsHalted()  returns FALSE (0001ms, 0699ms total)
T1918 011:490 JLINK_IsHalted()  returns FALSE (0000ms, 0699ms total)
T1918 011:591 JLINK_IsHalted()  returns FALSE (0000ms, 0699ms total)
T1918 011:691 JLINK_ReadMemU32(0xE0001004, 0x0001 Items, ...) -- CPU is running -- CPU_ReadMem(4 bytes @ 0xE0001004) -- Data:  01 00 00 40  returns 0x01 (0001ms, 0699ms total)
T1014 011:693 JLINK_ReadMem (0x200000DC, 0x0001 Bytes, ...) -- CPU is running -- CPU_ReadMem(1 bytes @ 0x200000DC) -- Data:  00  returns 0x00 (0000ms, 0700ms total)
T1918 011:695 JLINK_IsHalted()  returns FALSE (0001ms, 0700ms total)
T1918 011:797 JLINK_IsHalted()  returns FALSE (0000ms, 0700ms total)
T1918 011:898 JLINK_IsHalted()  returns FALSE (0000ms, 0700ms total)
T1918 011:999 JLINK_IsHalted()  returns FALSE (0000ms, 0700ms total)
T1918 012:100 JLINK_IsHalted()  returns FALSE (0001ms, 0700ms total)
T1918 012:201 JLINK_IsHalted()  returns FALSE (0000ms, 0700ms total)
T1918 012:303 JLINK_ReadMemU32(0xE0001004, 0x0001 Items, ...) -- CPU is running -- CPU_ReadMem(4 bytes @ 0xE0001004) -- Data:  01 00 00 40  returns 0x01 (0002ms, 0700ms total)
T1014 012:306 JLINK_ReadMem (0x200000DC, 0x0001 Bytes, ...) -- CPU is running -- CPU_ReadMem(1 bytes @ 0x200000DC) -- Data:  00  returns 0x00 (0001ms, 0702ms total)
T1918 012:309 JLINK_IsHalted()  returns FALSE (0000ms, 0703ms total)
T1918 012:409 JLINK_IsHalted()  returns FALSE (0001ms, 0703ms total)
T1918 012:511 JLINK_IsHalted()  returns FALSE (0000ms, 0703ms total)
T1918 012:611 JLINK_IsHalted()  returns FALSE (0000ms, 0703ms total)
T1918 012:712 JLINK_IsHalted()  returns FALSE (0000ms, 0703ms total)
T1918 012:812 JLINK_IsHalted()  returns FALSE (0001ms, 0703ms total)
T1918 012:914 JLINK_ReadMemU32(0xE0001004, 0x0001 Items, ...) -- CPU is running -- CPU_ReadMem(4 bytes @ 0xE0001004) -- Data:  01 00 00 40  returns 0x01 (0000ms, 0703ms total)
T1014 012:916 JLINK_ReadMem (0x200000DC, 0x0001 Bytes, ...) -- CPU is running -- CPU_ReadMem(1 bytes @ 0x200000DC) -- Data:  00  returns 0x00 (0000ms, 0703ms total)
T1918 012:918 JLINK_IsHalted()  returns FALSE (0001ms, 0703ms total)
T1918 013:019 JLINK_IsHalted()  returns FALSE (0000ms, 0703ms total)
T1918 013:120 JLINK_IsHalted()  returns FALSE (0000ms, 0703ms total)
T1918 013:221 JLINK_IsHalted()  returns FALSE (0001ms, 0703ms total)
T1918 013:322 JLINK_IsHalted()  returns FALSE (0000ms, 0703ms total)
T1918 013:423 JLINK_ReadMemU32(0xE0001004, 0x0001 Items, ...) -- CPU is running -- CPU_ReadMem(4 bytes @ 0xE0001004) -- Data:  01 00 00 40  returns 0x01 (0001ms, 0703ms total)
T1014 013:425 JLINK_ReadMem (0x200000DC, 0x0001 Bytes, ...) -- CPU is running -- CPU_ReadMem(1 bytes @ 0x200000DC) -- Data:  00  returns 0x00 (0001ms, 0704ms total)
T1918 013:429 JLINK_IsHalted()  returns FALSE (0001ms, 0705ms total)
T1918 013:530 JLINK_IsHalted()  returns FALSE (0001ms, 0705ms total)
T1918 013:632 JLINK_IsHalted()  returns FALSE (0000ms, 0705ms total)
T1918 013:732 JLINK_IsHalted()  returns FALSE (0000ms, 0705ms total)
T1918 013:833 JLINK_IsHalted()  returns FALSE (0000ms, 0705ms total)
T1918 013:934 JLINK_IsHalted()  returns FALSE (0001ms, 0705ms total)
T1918 014:035 JLINK_ReadMemU32(0xE0001004, 0x0001 Items, ...) -- CPU is running -- CPU_ReadMem(4 bytes @ 0xE0001004) -- Data:  01 00 00 40  returns 0x01 (0001ms, 0705ms total)
T1014 014:037 JLINK_ReadMem (0x200000DC, 0x0001 Bytes, ...) -- CPU is running -- CPU_ReadMem(1 bytes @ 0x200000DC) -- Data:  00  returns 0x00 (0001ms, 0706ms total)
T1918 014:040 JLINK_IsHalted()  returns FALSE (0001ms, 0707ms total)
T1918 014:142 JLINK_IsHalted()  returns FALSE (0000ms, 0707ms total)
T1918 014:242 JLINK_IsHalted()  returns FALSE (0000ms, 0707ms total)
T1918 014:343 JLINK_IsHalted()  returns FALSE (0000ms, 0707ms total)
T1918 014:443 JLINK_IsHalted()  returns FALSE (0001ms, 0707ms total)
T1918 014:545 JLINK_IsHalted()  returns FALSE (0000ms, 0707ms total)
T1918 014:645 JLINK_ReadMemU32(0xE0001004, 0x0001 Items, ...) -- CPU is running -- CPU_ReadMem(4 bytes @ 0xE0001004) -- Data:  01 00 00 40  returns 0x01 (0001ms, 0707ms total)
T1014 014:648 JLINK_ReadMem (0x200000DC, 0x0001 Bytes, ...) -- CPU is running -- CPU_ReadMem(1 bytes @ 0x200000DC) -- Data:  00  returns 0x00 (0000ms, 0708ms total)
T1918 014:651 JLINK_IsHalted()  returns FALSE (0000ms, 0708ms total)
T1918 014:752 JLINK_IsHalted()  returns FALSE (0000ms, 0708ms total)
T1918 014:852 JLINK_IsHalted()  returns FALSE (0001ms, 0708ms total)
T1918 014:954 JLINK_IsHalted()  returns FALSE (0001ms, 0708ms total)
T1918 015:056 JLINK_IsHalted()  returns FALSE (0000ms, 0708ms total)
T1918 015:156 JLINK_IsHalted()  returns FALSE (0000ms, 0708ms total)
T1918 015:257 JLINK_ReadMemU32(0xE0001004, 0x0001 Items, ...) -- CPU is running -- CPU_ReadMem(4 bytes @ 0xE0001004) -- Data:  01 00 00 40  returns 0x01 (0000ms, 0708ms total)
T1014 015:258 JLINK_ReadMem (0x200000DC, 0x0001 Bytes, ...) -- CPU is running -- CPU_ReadMem(1 bytes @ 0x200000DC) -- Data:  00  returns 0x00 (0001ms, 0708ms total)
T1918 015:261 JLINK_IsHalted()  returns FALSE (0001ms, 0709ms total)
T1918 015:362 JLINK_IsHalted()  returns FALSE (0001ms, 0709ms total)
T1918 015:464 JLINK_IsHalted()  returns FALSE (0001ms, 0709ms total)
T1918 015:565 JLINK_IsHalted()  returns FALSE (0001ms, 0709ms total)
T1918 015:667 JLINK_IsHalted()  returns FALSE (0000ms, 0709ms total)
T1918 015:768 JLINK_ReadMemU32(0xE0001004, 0x0001 Items, ...) -- CPU is running -- CPU_ReadMem(4 bytes @ 0xE0001004) -- Data:  01 00 00 40  returns 0x01 (0001ms, 0709ms total)
T1014 015:769 JLINK_ReadMem (0x200000DC, 0x0001 Bytes, ...) -- CPU is running -- CPU_ReadMem(1 bytes @ 0x200000DC) -- Data:  00  returns 0x00 (0001ms, 0710ms total)
T1918 015:772 JLINK_IsHalted()  returns FALSE (0000ms, 0711ms total)
T1918 015:873 JLINK_IsHalted()  returns FALSE (0000ms, 0711ms total)
T1918 015:974 JLINK_IsHalted()  returns FALSE (0000ms, 0711ms total)
T1918 016:074 JLINK_IsHalted()  returns FALSE (0001ms, 0711ms total)
T1918 016:176 JLINK_IsHalted()  returns FALSE (0001ms, 0711ms total)
T1918 016:277 JLINK_IsHalted()  returns FALSE (0000ms, 0711ms total)
T1918 016:378 JLINK_ReadMemU32(0xE0001004, 0x0001 Items, ...) -- CPU is running -- CPU_ReadMem(4 bytes @ 0xE0001004) -- Data:  01 00 00 40  returns 0x01 (0001ms, 0711ms total)
T1014 016:380 JLINK_ReadMem (0x200000DC, 0x0001 Bytes, ...) -- CPU is running -- CPU_ReadMem(1 bytes @ 0x200000DC) -- Data:  00  returns 0x00 (0000ms, 0712ms total)
T1918 016:382 JLINK_IsHalted()  returns FALSE (0001ms, 0712ms total)
T1918 016:483 JLINK_IsHalted()  returns FALSE (0001ms, 0712ms total)
T1918 016:585 JLINK_IsHalted()  returns FALSE (0000ms, 0712ms total)
T1918 016:686 JLINK_IsHalted()  returns FALSE (0000ms, 0712ms total)
T1918 016:786 JLINK_IsHalted()  returns FALSE (0000ms, 0712ms total)
T1918 016:887 JLINK_IsHalted()  returns FALSE (0000ms, 0712ms total)
T1918 016:987 JLINK_ReadMemU32(0xE0001004, 0x0001 Items, ...) -- CPU is running -- CPU_ReadMem(4 bytes @ 0xE0001004) -- Data:  01 00 00 40  returns 0x01 (0002ms, 0712ms total)
T1014 016:990 JLINK_ReadMem (0x200000DC, 0x0001 Bytes, ...) -- CPU is running -- CPU_ReadMem(1 bytes @ 0x200000DC) -- Data:  00  returns 0x00 (0001ms, 0714ms total)
T1918 016:993 JLINK_IsHalted()  returns FALSE (0001ms, 0715ms total)
T1918 017:095 JLINK_IsHalted()  returns FALSE (0000ms, 0715ms total)
T1918 017:195 JLINK_IsHalted()  returns FALSE (0000ms, 0715ms total)
T1918 017:296 JLINK_IsHalted()  returns FALSE (0001ms, 0715ms total)
T1918 017:397 JLINK_IsHalted()  returns FALSE (0001ms, 0715ms total)
T1918 017:499 JLINK_IsHalted()  returns FALSE (0001ms, 0715ms total)
T1918 017:601 JLINK_ReadMemU32(0xE0001004, 0x0001 Items, ...) -- CPU is running -- CPU_ReadMem(4 bytes @ 0xE0001004) -- Data:  01 00 00 40  returns 0x01 (0000ms, 0715ms total)
T1014 017:602 JLINK_ReadMem (0x200000DC, 0x0001 Bytes, ...) -- CPU is running -- CPU_ReadMem(1 bytes @ 0x200000DC) -- Data:  00  returns 0x00 (0000ms, 0715ms total)
T1918 017:605 JLINK_IsHalted()  returns FALSE (0000ms, 0716ms total)
T1918 017:706 JLINK_IsHalted()  returns FALSE (0001ms, 0716ms total)
T1918 017:808 JLINK_IsHalted()  returns FALSE (0001ms, 0716ms total)
T1918 017:909 JLINK_IsHalted()  returns FALSE (0000ms, 0716ms total)
T1918 018:010 JLINK_IsHalted()  returns FALSE (0000ms, 0716ms total)
T1918 018:110 JLINK_ReadMemU32(0xE0001004, 0x0001 Items, ...) -- CPU is running -- CPU_ReadMem(4 bytes @ 0xE0001004) -- Data:  01 00 00 40  returns 0x01 (0001ms, 0716ms total)
T1014 018:112 JLINK_ReadMem (0x200000DC, 0x0001 Bytes, ...) -- CPU is running -- CPU_ReadMem(1 bytes @ 0x200000DC) -- Data:  00  returns 0x00 (0002ms, 0717ms total)
T1918 018:116 JLINK_IsHalted()  returns TRUE (0004ms, 0719ms total)
T1918 018:120 JLINK_Halt()  returns 0x00 (0000ms, 0719ms total)
T1918 018:120 JLINK_IsHalted()  returns TRUE (0000ms, 0719ms total)
T1918 018:120 JLINK_IsHalted()  returns TRUE (0000ms, 0719ms total)
T1918 018:120 JLINK_IsHalted()  returns TRUE (0000ms, 0719ms total)
T1918 018:120 JLINK_ReadReg(R15)  returns 0x08001554 (0000ms, 0719ms total)
T1918 018:120 JLINK_ReadReg(XPSR)  returns 0x01000000 (0000ms, 0719ms total)
T1918 018:120 JLINK_ClrBPEx(BPHandle = 0x00000001)  returns 0x00 (0000ms, 0719ms total)
T1918 018:120 JLINK_ClrBPEx(BPHandle = 0x00000002)  returns 0x00 (0000ms, 0719ms total)
T1918 018:120 JLINK_ReadMemU32(0xE000ED30, 0x0001 Items, ...) -- CPU_ReadMem(4 bytes @ 0xE000ED30) -- Data:  03 00 00 00  returns 0x01 (0001ms, 0719ms total)
T1918 018:121 JLINK_ReadMemU32(0xE0001028, 0x0001 Items, ...) -- CPU_ReadMem(4 bytes @ 0xE0001028) -- Data:  01 00 00 40  returns 0x01 (0001ms, 0720ms total)
T1918 018:122 JLINK_ReadMemU32(0xE0001038, 0x0001 Items, ...) -- CPU_ReadMem(4 bytes @ 0xE0001038) -- Data:  01 00 00 40  returns 0x01 (0001ms, 0721ms total)
T1918 018:123 JLINK_ReadMemU32(0xE0001048, 0x0001 Items, ...) -- CPU_ReadMem(4 bytes @ 0xE0001048) -- Data:  01 00 00 40  returns 0x01 (0001ms, 0722ms total)
T1918 018:124 JLINK_ReadMemU32(0xE0001058, 0x0001 Items, ...) -- CPU_ReadMem(4 bytes @ 0xE0001058) -- Data:  01 00 00 40  returns 0x01 (0000ms, 0723ms total)
T1918 018:125 JLINK_ReadReg(R0)  returns 0x00000004 (0000ms, 0723ms total)
T1918 018:125 JLINK_ReadReg(R1)  returns 0x00000002 (0000ms, 0723ms total)
T1918 018:125 JLINK_ReadReg(R2)  returns 0x2000001A (0000ms, 0723ms total)
T1918 018:125 JLINK_ReadReg(R3)  returns 0x3FABE8F5 (0000ms, 0723ms total)
T1918 018:125 JLINK_ReadReg(R4)  returns 0x080015B4 (0000ms, 0723ms total)
T1918 018:125 JLINK_ReadReg(R5)  returns 0x080015B4 (0000ms, 0723ms total)
T1918 018:125 JLINK_ReadReg(R6)  returns 0x00000000 (0000ms, 0723ms total)
T1918 018:125 JLINK_ReadReg(R7)  returns 0x00000000 (0000ms, 0723ms total)
T1918 018:125 JLINK_ReadReg(R8)  returns 0x20004FF0 (0000ms, 0723ms total)
T1918 018:125 JLINK_ReadReg(R9)  returns 0x00000000 (0000ms, 0723ms total)
T1918 018:125 JLINK_ReadReg(R10)  returns 0x00000000 (0000ms, 0723ms total)
T1918 018:125 JLINK_ReadReg(R11)  returns 0x00000000 (0000ms, 0723ms total)
T1918 018:125 JLINK_ReadReg(R12)  returns 0x00148000 (0000ms, 0723ms total)
T1918 018:125 JLINK_ReadReg(R13)  returns 0x20004FF0 (0000ms, 0723ms total)
T1918 018:125 JLINK_ReadReg(R14)  returns 0x080010A3 (0000ms, 0723ms total)
T1918 018:125 JLINK_ReadReg(R15)  returns 0x08001554 (0000ms, 0723ms total)
T1918 018:125 JLINK_ReadReg(XPSR)  returns 0x01000000 (0000ms, 0723ms total)
T1918 018:125 JLINK_ReadReg(MSP)  returns 0x20004FF0 (0000ms, 0723ms total)
T1918 018:125 JLINK_ReadReg(PSP)  returns 0x20000800 (0000ms, 0723ms total)
T1918 018:125 JLINK_ReadReg(CFBP)  returns 0x00000000 (0000ms, 0723ms total)
T1014 018:125 JLINK_ReadMem (0x20004FFC, 0x0004 Bytes, ...) -- CPU_ReadMem(64 bytes @ 0x20004FC0) -- Updating C cache (64 bytes @ 0x20004FC0) -- Read from C cache (4 bytes @ 0x20004FFC) -- Data:  8D 03 00 08  returns 0x00 (0002ms, 0723ms total)
T1014 018:128 JLINK_WriteReg(R0, 0x00000004)  returns 0x00 (0000ms, 0725ms total)
T1014 018:128 JLINK_WriteReg(R1, 0x00000002)  returns 0x00 (0000ms, 0725ms total)
T1014 018:128 JLINK_WriteReg(R2, 0x2000001A)  returns 0x00 (0000ms, 0725ms total)
T1014 018:128 JLINK_WriteReg(R3, 0x3FABE8F5)  returns 0x00 (0000ms, 0725ms total)
T1014 018:128 JLINK_WriteReg(R4, 0x080015B4)  returns 0x00 (0000ms, 0725ms total)
T1014 018:128 JLINK_WriteReg(R5, 0x080015B4)  returns 0x00 (0000ms, 0725ms total)
T1014 018:128 JLINK_WriteReg(R6, 0x00000000)  returns 0x00 (0000ms, 0725ms total)
T1014 018:128 JLINK_WriteReg(R7, 0x00000000)  returns 0x00 (0000ms, 0725ms total)
T1014 018:128 JLINK_WriteReg(R8, 0x20004FF0)  returns 0x00 (0000ms, 0725ms total)
T1014 018:128 JLINK_WriteReg(R9, 0x00000000)  returns 0x00 (0000ms, 0725ms total)
T1014 018:128 JLINK_WriteReg(R10, 0x00000000)  returns 0x00 (0000ms, 0725ms total)
T1014 018:128 JLINK_WriteReg(R11, 0x00000000)  returns 0x00 (0000ms, 0725ms total)
T1014 018:128 JLINK_WriteReg(R12, 0x00148000)  returns 0x00 (0000ms, 0725ms total)
T1014 018:128 JLINK_WriteReg(R13, 0x20004FF0)  returns 0x00 (0000ms, 0725ms total)
T1014 018:128 JLINK_WriteReg(R14, 0x080010A3)  returns 0x00 (0000ms, 0725ms total)
T1014 018:128 JLINK_WriteReg(R15, 0x08001554)  returns 0x00 (0000ms, 0725ms total)
T1014 018:128 JLINK_WriteReg(XPSR, 0x01000000)  returns 0x00 (0000ms, 0725ms total)
T1014 018:128 JLINK_WriteReg(MSP, 0x20004FF0)  returns 0x00 (0000ms, 0725ms total)
T1014 018:128 JLINK_WriteReg(PSP, 0x20000800)  returns 0x00 (0000ms, 0725ms total)
T1014 018:128 JLINK_WriteReg(CFBP, 0x00000000)  returns 0x00 (0000ms, 0725ms total)
T1014 018:128 JLINK_ReadMem (0x00000000, 0x0001 Bytes, ...)
                JLINK_ReadMemHW(0x00000000, 0x0004 Bytes, ...) -- CPU_ReadMem(4 bytes @ 0x00000000) -- Data:  00 50 00 20  returns 0x00 (0001ms, 0000ms total)
                JLINK_ReadMemHW(0x08000000, 0x0004 Bytes, ...) -- CPU_ReadMem(4 bytes @ 0x08000000) -- Data:  00 50 00 20  returns 0x00 (0001ms, 0001ms total)
                JLINK_WriteMemHW(0x00000000, 0x0004 Bytes, ...) -- Data:  01 00 01 00 -- CPU_WriteMem(4 bytes @ 0x00000000)  returns 0x04 (0001ms, 0002ms total)
                JLINK_ReadMemHW(0x00000000, 0x0004 Bytes, ...) -- CPU_ReadMem(4 bytes @ 0x00000000) -- Data:  00 50 00 20  returns 0x00 (0001ms, 0003ms total)
               -- MA0 is in flash -- Unmirror addr 0x00000000 -- CPU_ReadMem(64 bytes @ 0x08000000) -- Updating C cache (64 bytes @ 0x08000000) -- Read from C cache (1 bytes @ 0x08000000) -- Data:  00  returns 0x00 (0005ms, 0725ms total)
T1014 018:134 JLINK_ReadReg(R0)  returns 0x00000004 (0000ms, 0730ms total)
T1014 018:134 JLINK_ReadReg(R1)  returns 0x00000002 (0000ms, 0730ms total)
T1014 018:134 JLINK_ReadReg(R2)  returns 0x2000001A (0000ms, 0730ms total)
T1014 018:134 JLINK_ReadReg(R3)  returns 0x3FABE8F5 (0000ms, 0730ms total)
T1014 018:134 JLINK_ReadReg(R4)  returns 0x080015B4 (0000ms, 0730ms total)
T1014 018:134 JLINK_ReadReg(R5)  returns 0x080015B4 (0000ms, 0730ms total)
T1014 018:134 JLINK_ReadReg(R6)  returns 0x00000000 (0000ms, 0730ms total)
T1014 018:134 JLINK_ReadReg(R7)  returns 0x00000000 (0000ms, 0730ms total)
T1014 018:134 JLINK_ReadReg(R8)  returns 0x20004FF0 (0000ms, 0730ms total)
T1014 018:134 JLINK_ReadReg(R9)  returns 0x00000000 (0000ms, 0730ms total)
T1014 018:134 JLINK_ReadReg(R10)  returns 0x00000000 (0000ms, 0730ms total)
T1014 018:134 JLINK_ReadReg(R11)  returns 0x00000000 (0000ms, 0730ms total)
T1014 018:134 JLINK_ReadReg(R12)  returns 0x00148000 (0000ms, 0730ms total)
T1014 018:134 JLINK_ReadReg(R13)  returns 0x20004FF0 (0000ms, 0730ms total)
T1014 018:134 JLINK_ReadReg(R14)  returns 0x080010A3 (0000ms, 0730ms total)
T1014 018:134 JLINK_ReadReg(R15)  returns 0x08001554 (0000ms, 0730ms total)
T1014 018:135 JLINK_ReadReg(XPSR)  returns 0x01000000 (0000ms, 0730ms total)
T1014 018:135 JLINK_ReadReg(MSP)  returns 0x20004FF0 (0000ms, 0730ms total)
T1014 018:135 JLINK_ReadReg(PSP)  returns 0x20000800 (0000ms, 0730ms total)
T1014 018:135 JLINK_ReadReg(CFBP)  returns 0x00000000 (0000ms, 0730ms total)
T1014 018:135 JLINK_WriteReg(R0, 0x00000004)  returns 0x00 (0000ms, 0730ms total)
T1014 018:135 JLINK_WriteReg(R1, 0x00000002)  returns 0x00 (0000ms, 0730ms total)
T1014 018:135 JLINK_WriteReg(R2, 0x2000001A)  returns 0x00 (0000ms, 0730ms total)
T1014 018:135 JLINK_WriteReg(R3, 0x3FABE8F5)  returns 0x00 (0000ms, 0730ms total)
T1014 018:135 JLINK_WriteReg(R4, 0x080015B4)  returns 0x00 (0000ms, 0730ms total)
T1014 018:135 JLINK_WriteReg(R5, 0x080015B4)  returns 0x00 (0000ms, 0730ms total)
T1014 018:135 JLINK_WriteReg(R6, 0x00000000)  returns 0x00 (0000ms, 0730ms total)
T1014 018:135 JLINK_WriteReg(R7, 0x00000000)  returns 0x00 (0000ms, 0730ms total)
T1014 018:135 JLINK_WriteReg(R8, 0x20004FF0)  returns 0x00 (0000ms, 0730ms total)
T1014 018:135 JLINK_WriteReg(R9, 0x00000000)  returns 0x00 (0000ms, 0730ms total)
T1014 018:135 JLINK_WriteReg(R10, 0x00000000)  returns 0x00 (0000ms, 0730ms total)
T1014 018:135 JLINK_WriteReg(R11, 0x00000000)  returns 0x00 (0000ms, 0730ms total)
T1014 018:135 JLINK_WriteReg(R12, 0x00148000)  returns 0x00 (0000ms, 0730ms total)
T1014 018:135 JLINK_WriteReg(R13, 0x20004FF0)  returns 0x00 (0000ms, 0730ms total)
T1014 018:135 JLINK_WriteReg(R14, 0x080010A3)  returns 0x00 (0000ms, 0730ms total)
T1014 018:135 JLINK_WriteReg(R15, 0x08001554)  returns 0x00 (0000ms, 0730ms total)
T1014 018:135 JLINK_WriteReg(XPSR, 0x01000000)  returns 0x00 (0000ms, 0730ms total)
T1014 018:135 JLINK_WriteReg(MSP, 0x20004FF0)  returns 0x00 (0000ms, 0730ms total)
T1014 018:135 JLINK_WriteReg(PSP, 0x20000800)  returns 0x00 (0000ms, 0730ms total)
T1014 018:135 JLINK_WriteReg(CFBP, 0x00000000)  returns 0x00 (0000ms, 0730ms total)
T1014 018:136 JLINK_ReadReg(R0)  returns 0x00000004 (0000ms, 0730ms total)
T1014 018:136 JLINK_ReadReg(R1)  returns 0x00000002 (0000ms, 0730ms total)
T1014 018:136 JLINK_ReadReg(R2)  returns 0x2000001A (0000ms, 0730ms total)
T1014 018:136 JLINK_ReadReg(R3)  returns 0x3FABE8F5 (0000ms, 0730ms total)
T1014 018:136 JLINK_ReadReg(R4)  returns 0x080015B4 (0000ms, 0730ms total)
T1014 018:136 JLINK_ReadReg(R5)  returns 0x080015B4 (0000ms, 0730ms total)
T1014 018:136 JLINK_ReadReg(R6)  returns 0x00000000 (0000ms, 0730ms total)
T1014 018:136 JLINK_ReadReg(R7)  returns 0x00000000 (0000ms, 0730ms total)
T1014 018:136 JLINK_ReadReg(R8)  returns 0x20004FF0 (0000ms, 0730ms total)
T1014 018:136 JLINK_ReadReg(R9)  returns 0x00000000 (0000ms, 0730ms total)
T1014 018:136 JLINK_ReadReg(R10)  returns 0x00000000 (0000ms, 0730ms total)
T1014 018:136 JLINK_ReadReg(R11)  returns 0x00000000 (0000ms, 0730ms total)
T1014 018:136 JLINK_ReadReg(R12)  returns 0x00148000 (0001ms, 0730ms total)
T1014 018:137 JLINK_ReadReg(R13)  returns 0x20004FF0 (0000ms, 0731ms total)
T1014 018:137 JLINK_ReadReg(R14)  returns 0x080010A3 (0000ms, 0731ms total)
T1014 018:137 JLINK_ReadReg(R15)  returns 0x08001554 (0000ms, 0731ms total)
T1014 018:137 JLINK_ReadReg(XPSR)  returns 0x01000000 (0000ms, 0731ms total)
T1014 018:137 JLINK_ReadReg(MSP)  returns 0x20004FF0 (0000ms, 0731ms total)
T1014 018:137 JLINK_ReadReg(PSP)  returns 0x20000800 (0000ms, 0731ms total)
T1014 018:137 JLINK_ReadReg(CFBP)  returns 0x00000000 (0000ms, 0731ms total)
T1014 018:137 JLINK_ReadMem (0x200000DC, 0x0001 Bytes, ...) -- CPU_ReadMem(64 bytes @ 0x200000C0) -- Updating C cache (64 bytes @ 0x200000C0) -- Read from C cache (1 bytes @ 0x200000DC) -- Data:  00  returns 0x00 (0001ms, 0731ms total)
T1014 018:267 JLINK_ReadMem (0x08001554, 0x003C Bytes, ...) -- CPU_ReadMem(128 bytes @ 0x08001540) -- Updating C cache (128 bytes @ 0x08001540) -- Read from C cache (60 bytes @ 0x08001554) -- Data:  68 46 FF F7 13 FC 68 46 FF F7 10 FC 68 46 FF F7 ...  returns 0x00 (0002ms, 0732ms total)
T1918 021:069 JLINK_Step() -- Read from C cache (2 bytes @ 0x08001554) -- Not simulated -- CPU_WriteMem(4 bytes @ 0xE0002008) -- CPU_WriteMem(4 bytes @ 0xE000200C) -- CPU_WriteMem(4 bytes @ 0xE0002010) -- CPU_WriteMem(4 bytes @ 0xE0002014) -- CPU_WriteMem(4 bytes @ 0xE0002018) -- CPU_WriteMem(4 bytes @ 0xE000201C) -- Invalidate MA0 status  returns 0x00 (0013ms, 0734ms total)
T1918 021:082 JLINK_ReadReg(R15)  returns 0x08001556 (0000ms, 0747ms total)
T1918 021:082 JLINK_ReadReg(XPSR)  returns 0x01000000 (0000ms, 0747ms total)
T1918 021:082 JLINK_SetBPEx(Addr = 0x08001554, Type = 0xFFFFFFF2)  returns 0x00000003 (0000ms, 0747ms total)
T1918 021:082 JLINK_SetBPEx(Addr = 0x08000E4C, Type = 0xFFFFFFF2)  returns 0x00000004 (0000ms, 0747ms total)
T1918 021:082 JLINK_Go() -- CPU_WriteMem(4 bytes @ 0xE0002008) -- CPU_WriteMem(4 bytes @ 0xE000200C) -- CPU_WriteMem(4 bytes @ 0xE0002010) -- CPU_WriteMem(4 bytes @ 0xE0002014) -- CPU_WriteMem(4 bytes @ 0xE0002018) -- CPU_WriteMem(4 bytes @ 0xE000201C) (0006ms, 0747ms total)
T1918 021:188 JLINK_IsHalted()  returns TRUE (0004ms, 0753ms total)
T1918 021:192 JLINK_Halt()  returns 0x00 (0000ms, 0753ms total)
T1918 021:192 JLINK_IsHalted()  returns TRUE (0000ms, 0753ms total)
T1918 021:192 JLINK_IsHalted()  returns TRUE (0000ms, 0753ms total)
T1918 021:192 JLINK_IsHalted()  returns TRUE (0000ms, 0753ms total)
T1918 021:192 JLINK_ReadReg(R15)  returns 0x08000E4C (0000ms, 0753ms total)
T1918 021:192 JLINK_ReadReg(XPSR)  returns 0x41000000 (0000ms, 0753ms total)
T1918 021:192 JLINK_ClrBPEx(BPHandle = 0x00000003)  returns 0x00 (0000ms, 0753ms total)
T1918 021:192 JLINK_ClrBPEx(BPHandle = 0x00000004)  returns 0x00 (0000ms, 0753ms total)
T1918 021:192 JLINK_ReadMemU32(0xE000ED30, 0x0001 Items, ...) -- CPU_ReadMem(4 bytes @ 0xE000ED30) -- Data:  03 00 00 00  returns 0x01 (0001ms, 0753ms total)
T1918 021:193 JLINK_ReadMemU32(0xE0001028, 0x0001 Items, ...) -- CPU_ReadMem(4 bytes @ 0xE0001028) -- Data:  01 00 00 40  returns 0x01 (0001ms, 0754ms total)
T1918 021:194 JLINK_ReadMemU32(0xE0001038, 0x0001 Items, ...) -- CPU_ReadMem(4 bytes @ 0xE0001038) -- Data:  01 00 00 40  returns 0x01 (0000ms, 0755ms total)
T1918 021:194 JLINK_ReadMemU32(0xE0001048, 0x0001 Items, ...) -- CPU_ReadMem(4 bytes @ 0xE0001048) -- Data:  01 00 00 40  returns 0x01 (0002ms, 0755ms total)
T1918 021:196 JLINK_ReadMemU32(0xE0001058, 0x0001 Items, ...) -- CPU_ReadMem(4 bytes @ 0xE0001058) -- Data:  01 00 00 40  returns 0x01 (0001ms, 0757ms total)
T1918 021:197 JLINK_ReadReg(R0)  returns 0x00000000 (0000ms, 0758ms total)
T1918 021:197 JLINK_ReadReg(R1)  returns 0x2000001A (0000ms, 0758ms total)
T1918 021:197 JLINK_ReadReg(R2)  returns 0x00000007 (0000ms, 0758ms total)
T1918 021:197 JLINK_ReadReg(R3)  returns 0x3FABE8F5 (0000ms, 0758ms total)
T1918 021:197 JLINK_ReadReg(R4)  returns 0x00000024 (0000ms, 0758ms total)
T1918 021:197 JLINK_ReadReg(R5)  returns 0x00000000 (0000ms, 0758ms total)
T1918 021:197 JLINK_ReadReg(R6)  returns 0x20004FF4 (0000ms, 0758ms total)
T1918 021:197 JLINK_ReadReg(R7)  returns 0x00000000 (0000ms, 0758ms total)
T1918 021:197 JLINK_ReadReg(R8)  returns 0x20004FF0 (0000ms, 0758ms total)
T1918 021:197 JLINK_ReadReg(R9)  returns 0x00000000 (0000ms, 0758ms total)
T1918 021:197 JLINK_ReadReg(R10)  returns 0x00000000 (0000ms, 0758ms total)
T1918 021:197 JLINK_ReadReg(R11)  returns 0x00000000 (0000ms, 0758ms total)
T1918 021:197 JLINK_ReadReg(R12)  returns 0x00148000 (0000ms, 0758ms total)
T1918 021:197 JLINK_ReadReg(R13)  returns 0x20004FD0 (0000ms, 0758ms total)
T1918 021:197 JLINK_ReadReg(R14)  returns 0x08001507 (0000ms, 0758ms total)
T1918 021:197 JLINK_ReadReg(R15)  returns 0x08000E4C (0001ms, 0758ms total)
T1918 021:198 JLINK_ReadReg(XPSR)  returns 0x41000000 (0000ms, 0759ms total)
T1918 021:198 JLINK_ReadReg(MSP)  returns 0x20004FD0 (0000ms, 0759ms total)
T1918 021:198 JLINK_ReadReg(PSP)  returns 0x20000800 (0000ms, 0759ms total)
T1918 021:198 JLINK_ReadReg(CFBP)  returns 0x00000001 (0000ms, 0759ms total)
T1014 021:198 JLINK_ReadMem (0x20004FD4, 0x0004 Bytes, ...) -- CPU_ReadMem(64 bytes @ 0x20004FC0) -- Updating C cache (64 bytes @ 0x20004FC0) -- Read from C cache (4 bytes @ 0x20004FD4) -- Data:  B5 0D 00 08  returns 0x00 (0001ms, 0759ms total)
T1014 021:199 JLINK_ReadMem (0x20004FD0, 0x0004 Bytes, ...) -- Read from C cache (4 bytes @ 0x20004FD0) -- Data:  F0 4F 00 20  returns 0x00 (0000ms, 0760ms total)
T1014 021:199 JLINK_ReadMem (0x20004FEC, 0x0004 Bytes, ...) -- Read from C cache (4 bytes @ 0x20004FEC) -- Data:  5B 15 00 08  returns 0x00 (0000ms, 0760ms total)
T1014 021:199 JLINK_ReadMem (0x20004FD8, 0x0004 Bytes, ...) -- Read from C cache (4 bytes @ 0x20004FD8) -- Data:  B4 15 00 08  returns 0x00 (0001ms, 0760ms total)
T1014 021:200 JLINK_ReadMem (0x20004FDC, 0x0004 Bytes, ...) -- Read from C cache (4 bytes @ 0x20004FDC) -- Data:  B4 15 00 08  returns 0x00 (0000ms, 0761ms total)
T1014 021:200 JLINK_ReadMem (0x20004FE0, 0x0004 Bytes, ...) -- Read from C cache (4 bytes @ 0x20004FE0) -- Data:  00 00 00 00  returns 0x00 (0000ms, 0761ms total)
T1014 021:200 JLINK_ReadMem (0x20004FE4, 0x0004 Bytes, ...) -- Read from C cache (4 bytes @ 0x20004FE4) -- Data:  00 00 00 00  returns 0x00 (0000ms, 0761ms total)
T1014 021:200 JLINK_ReadMem (0x20004FE8, 0x0004 Bytes, ...) -- Read from C cache (4 bytes @ 0x20004FE8) -- Data:  F0 4F 00 20  returns 0x00 (0000ms, 0761ms total)
T1014 021:200 JLINK_ReadMem (0x20004FFC, 0x0004 Bytes, ...) -- Read from C cache (4 bytes @ 0x20004FFC) -- Data:  8D 03 00 08  returns 0x00 (0000ms, 0761ms total)
T1014 021:200 JLINK_WriteReg(R0, 0x00000000)  returns 0x00 (0000ms, 0761ms total)
T1014 021:200 JLINK_WriteReg(R1, 0x2000001A)  returns 0x00 (0000ms, 0761ms total)
T1014 021:200 JLINK_WriteReg(R2, 0x00000007)  returns 0x00 (0000ms, 0761ms total)
T1014 021:200 JLINK_WriteReg(R3, 0x3FABE8F5)  returns 0x00 (0000ms, 0761ms total)
T1014 021:200 JLINK_WriteReg(R4, 0x00000024)  returns 0x00 (0000ms, 0761ms total)
T1014 021:200 JLINK_WriteReg(R5, 0x00000000)  returns 0x00 (0000ms, 0761ms total)
T1014 021:200 JLINK_WriteReg(R6, 0x20004FF4)  returns 0x00 (0000ms, 0761ms total)
T1014 021:200 JLINK_WriteReg(R7, 0x00000000)  returns 0x00 (0000ms, 0761ms total)
T1014 021:200 JLINK_WriteReg(R8, 0x20004FF0)  returns 0x00 (0000ms, 0761ms total)
T1014 021:200 JLINK_WriteReg(R9, 0x00000000)  returns 0x00 (0000ms, 0761ms total)
T1014 021:200 JLINK_WriteReg(R10, 0x00000000)  returns 0x00 (0000ms, 0761ms total)
T1014 021:200 JLINK_WriteReg(R11, 0x00000000)  returns 0x00 (0000ms, 0761ms total)
T1014 021:200 JLINK_WriteReg(R12, 0x00148000)  returns 0x00 (0000ms, 0761ms total)
T1014 021:200 JLINK_WriteReg(R13, 0x20004FD0)  returns 0x00 (0000ms, 0761ms total)
T1014 021:200 JLINK_WriteReg(R14, 0x08001507)  returns 0x00 (0000ms, 0761ms total)
T1014 021:200 JLINK_WriteReg(R15, 0x08000E4C)  returns 0x00 (0000ms, 0761ms total)
T1014 021:200 JLINK_WriteReg(XPSR, 0x41000000)  returns 0x00 (0000ms, 0761ms total)
T1014 021:200 JLINK_WriteReg(MSP, 0x20004FD0)  returns 0x00 (0001ms, 0761ms total)
T1014 021:201 JLINK_WriteReg(PSP, 0x20000800)  returns 0x00 (0000ms, 0762ms total)
T1014 021:201 JLINK_WriteReg(CFBP, 0x00000001)  returns 0x00 (0000ms, 0762ms total)
T1014 021:201 JLINK_ReadReg(R0)  returns 0x00000000 (0000ms, 0762ms total)
T1014 021:201 JLINK_ReadReg(R1)  returns 0x2000001A (0000ms, 0762ms total)
T1014 021:201 JLINK_ReadReg(R2)  returns 0x00000007 (0000ms, 0762ms total)
T1014 021:201 JLINK_ReadReg(R3)  returns 0x3FABE8F5 (0000ms, 0762ms total)
T1014 021:201 JLINK_ReadReg(R4)  returns 0x00000024 (0000ms, 0762ms total)
T1014 021:201 JLINK_ReadReg(R5)  returns 0x00000000 (0000ms, 0762ms total)
T1014 021:201 JLINK_ReadReg(R6)  returns 0x20004FF4 (0000ms, 0762ms total)
T1014 021:201 JLINK_ReadReg(R7)  returns 0x00000000 (0000ms, 0762ms total)
T1014 021:201 JLINK_ReadReg(R8)  returns 0x20004FF0 (0000ms, 0762ms total)
T1014 021:201 JLINK_ReadReg(R9)  returns 0x00000000 (0000ms, 0762ms total)
T1014 021:201 JLINK_ReadReg(R10)  returns 0x00000000 (0000ms, 0762ms total)
T1014 021:201 JLINK_ReadReg(R11)  returns 0x00000000 (0000ms, 0762ms total)
T1014 021:201 JLINK_ReadReg(R12)  returns 0x00148000 (0000ms, 0762ms total)
T1014 021:201 JLINK_ReadReg(R13)  returns 0x20004FD0 (0000ms, 0762ms total)
T1014 021:201 JLINK_ReadReg(R14)  returns 0x08001507 (0001ms, 0762ms total)
T1014 021:202 JLINK_ReadReg(R15)  returns 0x08000E4C (0000ms, 0763ms total)
T1014 021:202 JLINK_ReadReg(XPSR)  returns 0x41000000 (0000ms, 0763ms total)
T1014 021:202 JLINK_ReadReg(MSP)  returns 0x20004FD0 (0000ms, 0763ms total)
T1014 021:202 JLINK_ReadReg(PSP)  returns 0x20000800 (0000ms, 0763ms total)
T1014 021:202 JLINK_ReadReg(CFBP)  returns 0x00000001 (0000ms, 0763ms total)
T1014 021:202 JLINK_WriteReg(R0, 0x00000000)  returns 0x00 (0000ms, 0763ms total)
T1014 021:202 JLINK_WriteReg(R1, 0x2000001A)  returns 0x00 (0000ms, 0763ms total)
T1014 021:202 JLINK_WriteReg(R2, 0x00000007)  returns 0x00 (0000ms, 0763ms total)
T1014 021:202 JLINK_WriteReg(R3, 0x3FABE8F5)  returns 0x00 (0000ms, 0763ms total)
T1014 021:202 JLINK_WriteReg(R4, 0x00000024)  returns 0x00 (0000ms, 0763ms total)
T1014 021:202 JLINK_WriteReg(R5, 0x00000000)  returns 0x00 (0000ms, 0763ms total)
T1014 021:202 JLINK_WriteReg(R6, 0x20004FF4)  returns 0x00 (0000ms, 0763ms total)
T1014 021:202 JLINK_WriteReg(R7, 0x00000000)  returns 0x00 (0000ms, 0763ms total)
T1014 021:202 JLINK_WriteReg(R8, 0x20004FF0)  returns 0x00 (0000ms, 0763ms total)
T1014 021:202 JLINK_WriteReg(R9, 0x00000000)  returns 0x00 (0000ms, 0763ms total)
T1014 021:202 JLINK_WriteReg(R10, 0x00000000)  returns 0x00 (0000ms, 0763ms total)
T1014 021:202 JLINK_WriteReg(R11, 0x00000000)  returns 0x00 (0000ms, 0763ms total)
T1014 021:202 JLINK_WriteReg(R12, 0x00148000)  returns 0x00 (0000ms, 0763ms total)
T1014 021:202 JLINK_WriteReg(R13, 0x20004FD0)  returns 0x00 (0000ms, 0763ms total)
T1014 021:202 JLINK_WriteReg(R14, 0x08001507)  returns 0x00 (0000ms, 0763ms total)
T1014 021:202 JLINK_WriteReg(R15, 0x08000E4C)  returns 0x00 (0000ms, 0763ms total)
T1014 021:202 JLINK_WriteReg(XPSR, 0x41000000)  returns 0x00 (0000ms, 0763ms total)
T1014 021:202 JLINK_WriteReg(MSP, 0x20004FD0)  returns 0x00 (0000ms, 0763ms total)
T1014 021:202 JLINK_WriteReg(PSP, 0x20000800)  returns 0x00 (0000ms, 0763ms total)
T1014 021:203 JLINK_WriteReg(CFBP, 0x00000001)  returns 0x00 (0000ms, 0764ms total)
T1014 021:203 JLINK_ReadReg(R0)  returns 0x00000000 (0000ms, 0764ms total)
T1014 021:203 JLINK_ReadReg(R1)  returns 0x2000001A (0000ms, 0764ms total)
T1014 021:203 JLINK_ReadReg(R2)  returns 0x00000007 (0000ms, 0764ms total)
T1014 021:203 JLINK_ReadReg(R3)  returns 0x3FABE8F5 (0000ms, 0764ms total)
T1014 021:203 JLINK_ReadReg(R4)  returns 0x00000024 (0000ms, 0764ms total)
T1014 021:203 JLINK_ReadReg(R5)  returns 0x00000000 (0000ms, 0764ms total)
T1014 021:203 JLINK_ReadReg(R6)  returns 0x20004FF4 (0000ms, 0764ms total)
T1014 021:203 JLINK_ReadReg(R7)  returns 0x00000000 (0000ms, 0764ms total)
T1014 021:203 JLINK_ReadReg(R8)  returns 0x20004FF0 (0000ms, 0764ms total)
T1014 021:203 JLINK_ReadReg(R9)  returns 0x00000000 (0000ms, 0764ms total)
T1014 021:203 JLINK_ReadReg(R10)  returns 0x00000000 (0000ms, 0764ms total)
T1014 021:203 JLINK_ReadReg(R11)  returns 0x00000000 (0000ms, 0764ms total)
T1014 021:203 JLINK_ReadReg(R12)  returns 0x00148000 (0000ms, 0764ms total)
T1014 021:203 JLINK_ReadReg(R13)  returns 0x20004FD0 (0000ms, 0764ms total)
T1014 021:203 JLINK_ReadReg(R14)  returns 0x08001507 (0000ms, 0764ms total)
T1014 021:203 JLINK_ReadReg(R15)  returns 0x08000E4C (0000ms, 0764ms total)
T1014 021:203 JLINK_ReadReg(XPSR)  returns 0x41000000 (0000ms, 0764ms total)
T1014 021:203 JLINK_ReadReg(MSP)  returns 0x20004FD0 (0000ms, 0764ms total)
T1014 021:203 JLINK_ReadReg(PSP)  returns 0x20000800 (0000ms, 0764ms total)
T1014 021:203 JLINK_ReadReg(CFBP)  returns 0x00000001 (0000ms, 0764ms total)
T1014 021:203 JLINK_WriteReg(R0, 0x00000000)  returns 0x00 (0000ms, 0764ms total)
T1014 021:203 JLINK_WriteReg(R1, 0x2000001A)  returns 0x00 (0000ms, 0764ms total)
T1014 021:203 JLINK_WriteReg(R2, 0x00000007)  returns 0x00 (0000ms, 0764ms total)
T1014 021:203 JLINK_WriteReg(R3, 0x3FABE8F5)  returns 0x00 (0000ms, 0764ms total)
T1014 021:203 JLINK_WriteReg(R4, 0x00000024)  returns 0x00 (0000ms, 0764ms total)
T1014 021:203 JLINK_WriteReg(R5, 0x00000000)  returns 0x00 (0001ms, 0764ms total)
T1014 021:204 JLINK_WriteReg(R6, 0x20004FF4)  returns 0x00 (0000ms, 0765ms total)
T1014 021:204 JLINK_WriteReg(R7, 0x00000000)  returns 0x00 (0000ms, 0765ms total)
T1014 021:204 JLINK_WriteReg(R8, 0x20004FF0)  returns 0x00 (0000ms, 0765ms total)
T1014 021:204 JLINK_WriteReg(R9, 0x00000000)  returns 0x00 (0000ms, 0765ms total)
T1014 021:204 JLINK_WriteReg(R10, 0x00000000)  returns 0x00 (0000ms, 0765ms total)
T1014 021:204 JLINK_WriteReg(R11, 0x00000000)  returns 0x00 (0000ms, 0765ms total)
T1014 021:204 JLINK_WriteReg(R12, 0x00148000)  returns 0x00 (0000ms, 0765ms total)
T1014 021:204 JLINK_WriteReg(R13, 0x20004FD0)  returns 0x00 (0000ms, 0765ms total)
T1014 021:204 JLINK_WriteReg(R14, 0x08001507)  returns 0x00 (0000ms, 0765ms total)
T1014 021:204 JLINK_WriteReg(R15, 0x08000E4C)  returns 0x00 (0000ms, 0765ms total)
